
T3340 000:271 SEGGER J-Link V4.98e Log File (0001ms, 0264ms total)
T3340 000:271 DLL Compiled: May  5 2015 11:00:52 (0001ms, 0264ms total)
T3340 000:271 Logging started @ 2015-09-27 12:14 (0001ms, 0264ms total)
T3340 000:272 JLINK_SetWarnOutHandler(...) (0000ms, 0264ms total)
T3340 000:272 JLINK_OpenEx(...)
Firmware: J-Link ARM-OB STM32 compiled Aug 22 2012 19:52:04
Hardware: V7.00
S/N: 20090928
Feature(s): RDI,FlashDL,FlashBP,JFlash,GDBFull  returns O.K. (0260ms, 0524ms total)
T3340 000:532 JLINK_SetErrorOutHandler(...) (0000ms, 0524ms total)
T3340 000:532 JLINK_ExecCommand("ProjectFile = "E:\STM32_X\Project\JLinkSettings.ini"", ...)  returns 0x00 (0000ms, 0524ms total)
T3340 000:536 JLINK_ExecCommand("Device = STM32F103C8", ...)Device "STM32F103C8" selected.  returns 0x00 (0002ms, 0526ms total)
T3340 000:538 JLINK_ExecCommand("DisableConnectionTimeout", ...)  returns 0x01 (0000ms, 0526ms total)
T3340 000:538 JLINK_GetHardwareVersion()  returns 0x11170 (0000ms, 0526ms total)
T3340 000:538 JLINK_GetDLLVersion()  returns 49805 (0000ms, 0526ms total)
T3340 000:538 JLINK_GetFirmwareString(...) (0000ms, 0526ms total)
T3340 000:545 JLINK_GetDLLVersion()  returns 49805 (0000ms, 0526ms total)
T3340 000:545 JLINK_GetCompileDateTime() (0000ms, 0526ms total)
T3340 000:546 JLINK_GetFirmwareString(...) (0000ms, 0526ms total)
T3340 000:548 JLINK_GetHardwareVersion()  returns 0x11170 (0000ms, 0527ms total)
T3340 000:554 JLINK_TIF_Select(JLINKARM_TIF_SWD)  returns 0x00 (0002ms, 0529ms total)
T3340 000:556 JLINK_SetSpeed(5000) (0000ms, 0529ms total)
T3340 000:556 JLINK_GetId() >0x108 TIF>Found SWD-DP with ID 0x1BA01477 >0x0D TIF> >0x28 TIF> >0x0D TIF> >0x28 TIF> >0x0D TIF> >0x21 TIF> >0x0D TIF> >0x28 TIF> >0x0D TIF> >0x28 TIF> >0x0D TIF> >0x28 TIF> >0x0D TIF> >0x21 TIF> >0x0D TIF> >0x21 TIF> >0x0D TIF> >0x28 TIF> >0x0D TIF> >0x21 TIF> >0x0D TIF> >0x21 TIF> >0x108 TIF>Found SWD-DP with ID 0x1BA01477 >0x0D TIF> >0x21 TIF> >0x0D TIF> >0x28 TIF> >0x0D TIF> >0x28 TIF> >0x0D TIF> >0x21 TIF> >0x0D TIF> >0x28 TIF> >0x0D TIF> >0x21 TIF> >0x0D TIF> >0x21 TIF>
 >0x0D TIF> >0x21 TIF> >0x0D TIF> >0x21 TIF> >0x0D TIF> >0x28 TIF> >0x0D TIF> >0x28 TIF> >0x0D TIF> >0x21 TIF> >0x0D TIF> >0x28 TIF> >0x0D TIF> >0x28 TIF> >0x0D TIF> >0x28 TIF> >0x0D TIF> >0x21 TIF> >0x0D TIF> >0x21 TIF> >0x0D TIF> >0x28 TIF> >0x0D TIF> >0x21 TIF> >0x0D TIF> >0x21 TIF>Found Cortex-M3 r1p1, Little endian. -- CPU_WriteMem(4 bytes @ 0xE0002000) -- CPU_ReadMem(4 bytes @ 0xE000EDF0) -- CPU_ReadMem(4 bytes @ 0xE0002000)FPUnit: 6 code (BP) slots and 2 literal slots
 -- CPU_ReadMem(4 bytes @ 0xE000EDFC) -- CPU_ReadMem(4 bytes @ 0xE0001000) -- CPU_WriteMem(4 bytes @ 0xE0001000) -- CPU_ReadMem(4 bytes @ 0xE000ED88) -- CPU_WriteMem(4 bytes @ 0xE000ED88) -- CPU_ReadMem(4 bytes @ 0xE000ED88) -- CPU_WriteMem(4 bytes @ 0xE000ED88)CoreSight components:ROMTbl 0 @ E00FF000 -- CPU_ReadMem(16 bytes @ 0xE00FF000) -- CPU_ReadMem(16 bytes @ 0xE000EFF0) -- CPU_ReadMem(16 bytes @ 0xE000EFE0)ROMTbl 0 [0]: FFF0F000, CID: B105E00D, PID: 001BB000 SCS
 -- CPU_ReadMem(16 bytes @ 0xE0001FF0) -- CPU_ReadMem(16 bytes @ 0xE0001FE0)ROMTbl 0 [1]: FFF02000, CID: B105E00D, PID: 001BB002 DWT -- CPU_ReadMem(16 bytes @ 0xE0002FF0) -- CPU_ReadMem(16 bytes @ 0xE0002FE0)ROMTbl 0 [2]: FFF03000, CID: B105E00D, PID: 000BB003 FPB -- CPU_ReadMem(16 bytes @ 0xE0000FF0) -- CPU_ReadMem(16 bytes @ 0xE0000FE0)ROMTbl 0 [3]: FFF01000, CID: B105E00D, PID: 001BB001 ITM -- CPU_ReadMem(16 bytes @ 0xE00FF010) -- CPU_ReadMem(16 bytes @ 0xE0040FF0)
 -- CPU_ReadMem(16 bytes @ 0xE0040FE0)ROMTbl 0 [4]: FFF41000, CID: B105900D, PID: 001BB923 TPIU-Lite >0x0D TIF> >0x21 TIF>  returns 0x1BA01477 (0072ms, 0601ms total)
T3340 000:628 JLINK_GetDLLVersion()  returns 49805 (0000ms, 0601ms total)
T3340 000:628 JLINK_CORE_GetFound()  returns 0x30000FF (0000ms, 0601ms total)
T3340 000:628 JLINK_GetDebugInfo(0x100) -- Value=0xE00FF003  returns 0x00 (0000ms, 0601ms total)
T3340 000:630 JLINK_ReadMem (0xE00FF000, 0x0020 Bytes, ...) -- CPU is running -- CPU_ReadMem(32 bytes @ 0xE00FF000) - Data: 03 F0 F0 FF 03 20 F0 FF 03 30 F0 FF 03 10 F0 FF ...  returns 0x00 (0001ms, 0602ms total)
T3340 000:631 JLINK_ReadMem (0xE000EFF0, 0x0010 Bytes, ...) -- CPU is running -- CPU_ReadMem(16 bytes @ 0xE000EFF0) - Data: 0D 00 00 00 E0 00 00 00 05 00 00 00 B1 00 00 00  returns 0x00 (0001ms, 0603ms total)
T3340 000:632 JLINK_ReadMem (0xE000EFD0, 0x0020 Bytes, ...) -- CPU is running -- CPU_ReadMem(32 bytes @ 0xE000EFD0) - Data: 04 00 00 00 00 00 00 00 00 00 00 00 00 00 00 00 ...  returns 0x00 (0001ms, 0604ms total)
T3340 000:633 JLINK_ReadMem (0xE0001FF0, 0x0010 Bytes, ...) -- CPU is running -- CPU_ReadMem(16 bytes @ 0xE0001FF0) - Data: 0D 00 00 00 E0 00 00 00 05 00 00 00 B1 00 00 00  returns 0x00 (0001ms, 0605ms total)
T3340 000:634 JLINK_ReadMem (0xE0001FD0, 0x0020 Bytes, ...) -- CPU is running -- CPU_ReadMem(32 bytes @ 0xE0001FD0) - Data: 04 00 00 00 00 00 00 00 00 00 00 00 00 00 00 00 ...  returns 0x00 (0001ms, 0606ms total)
T3340 000:635 JLINK_ReadMem (0xE0002FF0, 0x0010 Bytes, ...) -- CPU is running -- CPU_ReadMem(16 bytes @ 0xE0002FF0) - Data: 0D 00 00 00 E0 00 00 00 05 00 00 00 B1 00 00 00  returns 0x00 (0001ms, 0607ms total)
T3340 000:636 JLINK_ReadMem (0xE0002FD0, 0x0020 Bytes, ...) -- CPU is running -- CPU_ReadMem(32 bytes @ 0xE0002FD0) - Data: 04 00 00 00 00 00 00 00 00 00 00 00 00 00 00 00 ...  returns 0x00 (0001ms, 0608ms total)
T3340 000:637 JLINK_ReadMem (0xE0000FF0, 0x0010 Bytes, ...) -- CPU is running -- CPU_ReadMem(16 bytes @ 0xE0000FF0) - Data: 0D 00 00 00 E0 00 00 00 05 00 00 00 B1 00 00 00  returns 0x00 (0000ms, 0608ms total)
T3340 000:638 JLINK_ReadMem (0xE0000FD0, 0x0020 Bytes, ...) -- CPU is running -- CPU_ReadMem(32 bytes @ 0xE0000FD0) - Data: 04 00 00 00 00 00 00 00 00 00 00 00 00 00 00 00 ...  returns 0x00 (0001ms, 0609ms total)
T3340 000:639 JLINK_ReadMem (0xE0040FF0, 0x0010 Bytes, ...) -- CPU is running -- CPU_ReadMem(16 bytes @ 0xE0040FF0) - Data: 0D 00 00 00 90 00 00 00 05 00 00 00 B1 00 00 00  returns 0x00 (0001ms, 0610ms total)
T3340 000:640 JLINK_ReadMem (0xE0040FD0, 0x0020 Bytes, ...) -- CPU is running -- CPU_ReadMem(32 bytes @ 0xE0040FD0) - Data: 04 00 00 00 00 00 00 00 00 00 00 00 00 00 00 00 ...  returns 0x00 (0001ms, 0611ms total)
T3340 000:641 JLINK_ReadMemU32(0xE000ED00, 0x0001 Items, ...) -- CPU is running -- CPU_ReadMem(4 bytes @ 0xE000ED00) - Data: 31 C2 1F 41  returns 0x01 (0000ms, 0611ms total)
T3340 000:641 JLINK_SetResetType(JLINKARM_RESET_TYPE_NORMAL)  returns JLINKARM_RESET_TYPE_NORMAL (0000ms, 0611ms total)
T3340 000:641 JLINK_Reset() -- CPU is running -- CPU_WriteMem(4 bytes @ 0xE000EDF0) -- CPU is running -- CPU_WriteMem(4 bytes @ 0xE000EDFC) >0x35 TIF> -- CPU is running -- CPU_WriteMem(4 bytes @ 0xE000ED0C) -- CPU is running -- CPU_ReadMem(4 bytes @ 0xE000EDF0) -- CPU is running -- CPU_ReadMem(4 bytes @ 0xE000EDF0) -- CPU is running -- CPU_WriteMem(4 bytes @ 0xE000EDF0) -- CPU is running -- CPU_WriteMem(4 bytes @ 0xE000EDFC) -- CPU is running -- CPU_ReadMem(4 bytes @ 0xE000EDF0)
 -- CPU_WriteMem(4 bytes @ 0xE0002000) -- CPU_ReadMem(4 bytes @ 0xE000EDFC) -- CPU_ReadMem(4 bytes @ 0xE0001000) (0024ms, 0635ms total)
T3340 000:665 JLINK_Halt()  returns 0x00 (0000ms, 0635ms total)
T3340 000:665 JLINK_IsHalted()  returns TRUE (0000ms, 0635ms total)
T3340 000:665 JLINK_ReadMemU32(0xE000EDF0, 0x0001 Items, ...) -- CPU_ReadMem(4 bytes @ 0xE000EDF0) - Data: 03 00 03 00  returns 0x01 (0000ms, 0635ms total)
T3340 000:665 JLINK_WriteU32(0xE000EDF0, 0xA05F0003) -- CPU_WriteMem(4 bytes @ 0xE000EDF0)  returns 0x00 (0001ms, 0636ms total)
T3340 000:666 JLINK_WriteU32(0xE000EDFC, 0x01000000) -- CPU_WriteMem(4 bytes @ 0xE000EDFC)  returns 0x00 (0002ms, 0638ms total)
T3340 000:673 JLINK_GetHWStatus(...)  returns 0x00 (0000ms, 0638ms total)
T3340 000:679 JLINK_GetNumBPUnits(Type = 0xFFFFFF00)  returns 0x06 (0000ms, 0638ms total)
T3340 000:679 JLINK_GetNumBPUnits(Type = 0xF0)  returns 0x2000 (0000ms, 0638ms total)
T3340 000:679 JLINK_GetNumWPUnits()  returns 0x04 (0000ms, 0638ms total)
T3340 000:683 JLINK_GetSpeed()  returns 0xFA0 (0000ms, 0638ms total)
T3340 000:685 JLINK_ReadMemU32(0xE000E004, 0x0001 Items, ...) -- CPU_ReadMem(4 bytes @ 0xE000E004) - Data: 01 00 00 00  returns 0x01 (0001ms, 0639ms total)
T3340 000:686 JLINK_ReadMemU32(0xE000E004, 0x0001 Items, ...) -- CPU_ReadMem(4 bytes @ 0xE000E004) - Data: 01 00 00 00  returns 0x01 (0001ms, 0640ms total)
T3340 000:687 JLINK_WriteMem(0xE0001000, 0x001C Bytes, ...) - Data: 01 00 00 00 00 00 00 00 00 00 00 00 00 00 00 00 ... -- CPU_WriteMem(28 bytes @ 0xE0001000)  returns 0x1C (0001ms, 0641ms total)
T3340 000:688 JLINK_ReadMem (0xE0001000, 0x001C Bytes, ...) -- CPU_ReadMem(28 bytes @ 0xE0001000) - Data: 01 00 00 40 00 00 00 00 00 00 00 00 00 00 00 00 ...  returns 0x00 (0001ms, 0642ms total)
T3340 000:689 JLINK_Halt()  returns 0x00 (0000ms, 0642ms total)
T3340 000:689 JLINK_IsHalted()  returns TRUE (0000ms, 0642ms total)
T3340 000:690 JLINK_WriteMem(0x20000000, 0x0164 Bytes, ...) - Data: 00 BE 0A E0 0D 78 2D 06 68 40 08 24 40 00 00 D3 ... -- CPU_WriteMem(356 bytes @ 0x20000000)  returns 0x164 (0006ms, 0648ms total)
T3340 000:696 JLINK_WriteReg(R0, 0x08000000)  returns 0x00 (0000ms, 0648ms total)
T3340 000:696 JLINK_WriteReg(R1, 0x00B71B00)  returns 0x00 (0000ms, 0648ms total)
T3340 000:696 JLINK_WriteReg(R2, 0x00000001)  returns 0x00 (0000ms, 0648ms total)
T3340 000:696 JLINK_WriteReg(R3, 0x00000000)  returns 0x00 (0000ms, 0648ms total)
T3340 000:696 JLINK_WriteReg(R4, 0x00000000)  returns 0x00 (0000ms, 0648ms total)
T3340 000:696 JLINK_WriteReg(R5, 0x00000000)  returns 0x00 (0000ms, 0648ms total)
T3340 000:696 JLINK_WriteReg(R6, 0x00000000)  returns 0x00 (0000ms, 0648ms total)
T3340 000:696 JLINK_WriteReg(R7, 0x00000000)  returns 0x00 (0000ms, 0648ms total)
T3340 000:696 JLINK_WriteReg(R8, 0x00000000)  returns 0x00 (0000ms, 0648ms total)
T3340 000:696 JLINK_WriteReg(R9, 0x20000160)  returns 0x00 (0000ms, 0648ms total)
T3340 000:696 JLINK_WriteReg(R10, 0x00000000)  returns 0x00 (0000ms, 0648ms total)
T3340 000:696 JLINK_WriteReg(R11, 0x00000000)  returns 0x00 (0000ms, 0648ms total)
T3340 000:696 JLINK_WriteReg(R12, 0x00000000)  returns 0x00 (0000ms, 0648ms total)
T3340 000:696 JLINK_WriteReg(R13 (SP), 0x20001000)  returns 0x00 (0000ms, 0648ms total)
T3340 000:696 JLINK_WriteReg(R14, 0x20000001)  returns 0x00 (0000ms, 0648ms total)
T3340 000:696 JLINK_WriteReg(R15 (PC), 0x20000038)  returns 0x00 (0000ms, 0648ms total)
T3340 000:696 JLINK_WriteReg(XPSR, 0x01000000)  returns 0x00 (0000ms, 0648ms total)
T3340 000:696 JLINK_WriteReg(MSP, 0x20001000)  returns 0x00 (0000ms, 0648ms total)
T3340 000:696 JLINK_WriteReg(PSP, 0x20001000)  returns 0x00 (0000ms, 0648ms total)
T3340 000:696 JLINK_WriteReg(CFBP, 0x00000000)  returns 0x00 (0000ms, 0648ms total)
T3340 000:696 JLINK_SetBPEx(Addr = 0x20000000, Type = 0xFFFFFFF2) -- CPU_ReadMem(2 bytes @ 0x20000000)  returns 0x00000001 (0001ms, 0649ms total)
T3340 000:697 JLINK_Go() -- CPU_WriteMem(2 bytes @ 0x20000000) -- CPU_ReadMem(4 bytes @ 0xE0001000) -- CPU_WriteMem(4 bytes @ 0xE0002008) -- CPU_WriteMem(4 bytes @ 0xE000200C) -- CPU_WriteMem(4 bytes @ 0xE0002010) -- CPU_WriteMem(4 bytes @ 0xE0002014) -- CPU_WriteMem(4 bytes @ 0xE0002018) -- CPU_WriteMem(4 bytes @ 0xE000201C) -- CPU_WriteMem(4 bytes @ 0xE0001004) (0008ms, 0657ms total)
T3340 000:705 JLINK_IsHalted() -- CPU_ReadMem(2 bytes @ 0x20000000)  returns TRUE (0004ms, 0661ms total)
T3340 000:709 JLINK_ReadReg(R15 (PC))  returns 0x20000000 (0000ms, 0657ms total)
T3340 000:709 JLINK_ClrBPEx(BPHandle = 0x00000001)  returns 0x00 (0000ms, 0657ms total)
T3340 000:709 JLINK_ReadReg(R0)  returns 0x00000000 (0000ms, 0657ms total)
T3340 000:709 JLINK_WriteReg(R0, 0x08000000)  returns 0x00 (0000ms, 0657ms total)
T3340 000:709 JLINK_WriteReg(R1, 0x00B71B00)  returns 0x00 (0000ms, 0657ms total)
T3340 000:709 JLINK_WriteReg(R2, 0x00000001)  returns 0x00 (0000ms, 0657ms total)
T3340 000:709 JLINK_WriteReg(R3, 0x00000000)  returns 0x00 (0001ms, 0658ms total)
T3340 000:710 JLINK_WriteReg(R4, 0x00000000)  returns 0x00 (0000ms, 0658ms total)
T3340 000:710 JLINK_WriteReg(R5, 0x00000000)  returns 0x00 (0000ms, 0658ms total)
T3340 000:710 JLINK_WriteReg(R6, 0x00000000)  returns 0x00 (0000ms, 0658ms total)
T3340 000:710 JLINK_WriteReg(R7, 0x00000000)  returns 0x00 (0000ms, 0658ms total)
T3340 000:710 JLINK_WriteReg(R8, 0x00000000)  returns 0x00 (0000ms, 0658ms total)
T3340 000:710 JLINK_WriteReg(R9, 0x20000160)  returns 0x00 (0000ms, 0658ms total)
T3340 000:710 JLINK_WriteReg(R10, 0x00000000)  returns 0x00 (0000ms, 0658ms total)
T3340 000:710 JLINK_WriteReg(R11, 0x00000000)  returns 0x00 (0000ms, 0658ms total)
T3340 000:710 JLINK_WriteReg(R12, 0x00000000)  returns 0x00 (0000ms, 0658ms total)
T3340 000:710 JLINK_WriteReg(R13 (SP), 0x20001000)  returns 0x00 (0000ms, 0658ms total)
T3340 000:710 JLINK_WriteReg(R14, 0x20000001)  returns 0x00 (0000ms, 0658ms total)
T3340 000:710 JLINK_WriteReg(R15 (PC), 0x2000007C)  returns 0x00 (0000ms, 0658ms total)
T3340 000:710 JLINK_WriteReg(XPSR, 0x01000000)  returns 0x00 (0000ms, 0658ms total)
T3340 000:710 JLINK_WriteReg(MSP, 0x20001000)  returns 0x00 (0000ms, 0658ms total)
T3340 000:710 JLINK_WriteReg(PSP, 0x20001000)  returns 0x00 (0000ms, 0658ms total)
T3340 000:710 JLINK_WriteReg(CFBP, 0x00000000)  returns 0x00 (0000ms, 0658ms total)
T3340 000:710 JLINK_SetBPEx(Addr = 0x20000000, Type = 0xFFFFFFF2)  returns 0x00000002 (0000ms, 0658ms total)
T3340 000:710 JLINK_Go() -- CPU_ReadMem(4 bytes @ 0xE0001000) (0003ms, 0661ms total)
T3340 000:713 JLINK_IsHalted()  returns FALSE (0000ms, 0661ms total)
T3340 000:768 JLINK_IsHalted() -- CPU_ReadMem(2 bytes @ 0x20000000)  returns TRUE (0004ms, 0665ms total)
T3340 000:772 JLINK_ReadReg(R15 (PC))  returns 0x20000000 (0000ms, 0661ms total)
T3340 000:772 JLINK_ClrBPEx(BPHandle = 0x00000002)  returns 0x00 (0000ms, 0661ms total)
T3340 000:772 JLINK_ReadReg(R0)  returns 0x00000000 (0000ms, 0661ms total)
T3340 000:824 JLINK_WriteReg(R0, 0x00000001)  returns 0x00 (0000ms, 0661ms total)
T3340 000:824 JLINK_WriteReg(R1, 0x00B71B00)  returns 0x00 (0000ms, 0661ms total)
T3340 000:824 JLINK_WriteReg(R2, 0x00000001)  returns 0x00 (0000ms, 0661ms total)
T3340 000:824 JLINK_WriteReg(R3, 0x00000000)  returns 0x00 (0000ms, 0661ms total)
T3340 000:824 JLINK_WriteReg(R4, 0x00000000)  returns 0x00 (0000ms, 0661ms total)
T3340 000:824 JLINK_WriteReg(R5, 0x00000000)  returns 0x00 (0000ms, 0661ms total)
T3340 000:824 JLINK_WriteReg(R6, 0x00000000)  returns 0x00 (0000ms, 0661ms total)
T3340 000:824 JLINK_WriteReg(R7, 0x00000000)  returns 0x00 (0000ms, 0661ms total)
T3340 000:824 JLINK_WriteReg(R8, 0x00000000)  returns 0x00 (0000ms, 0661ms total)
T3340 000:824 JLINK_WriteReg(R9, 0x20000160)  returns 0x00 (0000ms, 0661ms total)
T3340 000:824 JLINK_WriteReg(R10, 0x00000000)  returns 0x00 (0000ms, 0661ms total)
T3340 000:824 JLINK_WriteReg(R11, 0x00000000)  returns 0x00 (0000ms, 0661ms total)
T3340 000:824 JLINK_WriteReg(R12, 0x00000000)  returns 0x00 (0000ms, 0661ms total)
T3340 000:824 JLINK_WriteReg(R13 (SP), 0x20001000)  returns 0x00 (0000ms, 0661ms total)
T3340 000:824 JLINK_WriteReg(R14, 0x20000001)  returns 0x00 (0000ms, 0661ms total)
T3340 000:824 JLINK_WriteReg(R15 (PC), 0x2000006A)  returns 0x00 (0000ms, 0661ms total)
T3340 000:824 JLINK_WriteReg(XPSR, 0x01000000)  returns 0x00 (0000ms, 0661ms total)
T3340 000:824 JLINK_WriteReg(MSP, 0x20001000)  returns 0x00 (0000ms, 0661ms total)
T3340 000:824 JLINK_WriteReg(PSP, 0x20001000)  returns 0x00 (0000ms, 0661ms total)
T3340 000:824 JLINK_WriteReg(CFBP, 0x00000000)  returns 0x00 (0000ms, 0661ms total)
T3340 000:824 JLINK_SetBPEx(Addr = 0x20000000, Type = 0xFFFFFFF2)  returns 0x00000003 (0000ms, 0661ms total)
T3340 000:824 JLINK_Go() -- CPU_ReadMem(4 bytes @ 0xE0001000) (0003ms, 0664ms total)
T3340 000:827 JLINK_IsHalted() -- CPU_ReadMem(2 bytes @ 0x20000000)  returns TRUE (0004ms, 0668ms total)
T3340 000:831 JLINK_ReadReg(R15 (PC))  returns 0x20000000 (0000ms, 0664ms total)
T3340 000:831 JLINK_ClrBPEx(BPHandle = 0x00000003)  returns 0x00 (0000ms, 0664ms total)
T3340 000:831 JLINK_ReadReg(R0)  returns 0x00000000 (0000ms, 0664ms total)
T3340 000:834 JLINK_WriteMem(0x20000000, 0x0164 Bytes, ...) - Data: 00 BE 0A E0 0D 78 2D 06 68 40 08 24 40 00 00 D3 ... -- CPU_WriteMem(356 bytes @ 0x20000000)  returns 0x164 (0005ms, 0669ms total)
T3340 000:839 JLINK_WriteReg(R0, 0x08000000)  returns 0x00 (0000ms, 0669ms total)
T3340 000:839 JLINK_WriteReg(R1, 0x00B71B00)  returns 0x00 (0000ms, 0669ms total)
T3340 000:839 JLINK_WriteReg(R2, 0x00000002)  returns 0x00 (0000ms, 0669ms total)
T3340 000:839 JLINK_WriteReg(R3, 0x00000000)  returns 0x00 (0000ms, 0669ms total)
T3340 000:839 JLINK_WriteReg(R4, 0x00000000)  returns 0x00 (0000ms, 0669ms total)
T3340 000:839 JLINK_WriteReg(R5, 0x00000000)  returns 0x00 (0000ms, 0669ms total)
T3340 000:839 JLINK_WriteReg(R6, 0x00000000)  returns 0x00 (0000ms, 0669ms total)
T3340 000:839 JLINK_WriteReg(R7, 0x00000000)  returns 0x00 (0000ms, 0669ms total)
T3340 000:839 JLINK_WriteReg(R8, 0x00000000)  returns 0x00 (0000ms, 0669ms total)
T3340 000:839 JLINK_WriteReg(R9, 0x20000160)  returns 0x00 (0000ms, 0669ms total)
T3340 000:839 JLINK_WriteReg(R10, 0x00000000)  returns 0x00 (0000ms, 0669ms total)
T3340 000:839 JLINK_WriteReg(R11, 0x00000000)  returns 0x00 (0000ms, 0669ms total)
T3340 000:839 JLINK_WriteReg(R12, 0x00000000)  returns 0x00 (0000ms, 0669ms total)
T3340 000:839 JLINK_WriteReg(R13 (SP), 0x20001000)  returns 0x00 (0000ms, 0669ms total)
T3340 000:839 JLINK_WriteReg(R14, 0x20000001)  returns 0x00 (0000ms, 0669ms total)
T3340 000:839 JLINK_WriteReg(R15 (PC), 0x20000038)  returns 0x00 (0000ms, 0669ms total)
T3340 000:839 JLINK_WriteReg(XPSR, 0x01000000)  returns 0x00 (0000ms, 0669ms total)
T3340 000:839 JLINK_WriteReg(MSP, 0x20001000)  returns 0x00 (0000ms, 0669ms total)
T3340 000:839 JLINK_WriteReg(PSP, 0x20001000)  returns 0x00 (0000ms, 0669ms total)
T3340 000:839 JLINK_WriteReg(CFBP, 0x00000000)  returns 0x00 (0000ms, 0669ms total)
T3340 000:839 JLINK_SetBPEx(Addr = 0x20000000, Type = 0xFFFFFFF2) -- CPU_ReadMem(2 bytes @ 0x20000000)  returns 0x00000004 (0001ms, 0670ms total)
T3340 000:840 JLINK_Go() -- CPU_WriteMem(2 bytes @ 0x20000000) -- CPU_ReadMem(4 bytes @ 0xE0001000) (0004ms, 0674ms total)
T3340 000:844 JLINK_IsHalted() -- CPU_ReadMem(2 bytes @ 0x20000000)  returns TRUE (0004ms, 0678ms total)
T3340 000:848 JLINK_ReadReg(R15 (PC))  returns 0x20000000 (0000ms, 0674ms total)
T3340 000:848 JLINK_ClrBPEx(BPHandle = 0x00000004)  returns 0x00 (0000ms, 0674ms total)
T3340 000:848 JLINK_ReadReg(R0)  returns 0x00000000 (0000ms, 0674ms total)
T3340 000:848 JLINK_WriteMem(0x20000164, 0x0400 Bytes, ...) - Data: 20 10 00 20 79 02 00 08 8D 1F 00 08 39 1F 00 08 ... -- CPU_WriteMem(1024 bytes @ 0x20000164)  returns 0x400 (0013ms, 0687ms total)
T3340 000:861 JLINK_WriteReg(R0, 0x08000000)  returns 0x00 (0000ms, 0687ms total)
T3340 000:861 JLINK_WriteReg(R1, 0x00000400)  returns 0x00 (0000ms, 0687ms total)
T3340 000:861 JLINK_WriteReg(R2, 0x20000164)  returns 0x00 (0000ms, 0687ms total)
T3340 000:861 JLINK_WriteReg(R3, 0x00000000)  returns 0x00 (0000ms, 0687ms total)
T3340 000:861 JLINK_WriteReg(R4, 0x00000000)  returns 0x00 (0000ms, 0687ms total)
T3340 000:861 JLINK_WriteReg(R5, 0x00000000)  returns 0x00 (0000ms, 0687ms total)
T3340 000:861 JLINK_WriteReg(R6, 0x00000000)  returns 0x00 (0000ms, 0687ms total)
T3340 000:861 JLINK_WriteReg(R7, 0x00000000)  returns 0x00 (0000ms, 0687ms total)
T3340 000:861 JLINK_WriteReg(R8, 0x00000000)  returns 0x00 (0000ms, 0687ms total)
T3340 000:861 JLINK_WriteReg(R9, 0x20000160)  returns 0x00 (0000ms, 0687ms total)
T3340 000:861 JLINK_WriteReg(R10, 0x00000000)  returns 0x00 (0000ms, 0687ms total)
T3340 000:861 JLINK_WriteReg(R11, 0x00000000)  returns 0x00 (0000ms, 0687ms total)
T3340 000:861 JLINK_WriteReg(R12, 0x00000000)  returns 0x00 (0000ms, 0687ms total)
T3340 000:861 JLINK_WriteReg(R13 (SP), 0x20001000)  returns 0x00 (0000ms, 0687ms total)
T3340 000:861 JLINK_WriteReg(R14, 0x20000001)  returns 0x00 (0000ms, 0687ms total)
T3340 000:861 JLINK_WriteReg(R15 (PC), 0x200000F4)  returns 0x00 (0000ms, 0687ms total)
T3340 000:861 JLINK_WriteReg(XPSR, 0x01000000)  returns 0x00 (0000ms, 0687ms total)
T3340 000:861 JLINK_WriteReg(MSP, 0x20001000)  returns 0x00 (0000ms, 0687ms total)
T3340 000:861 JLINK_WriteReg(PSP, 0x20001000)  returns 0x00 (0000ms, 0687ms total)
T3340 000:861 JLINK_WriteReg(CFBP, 0x00000000)  returns 0x00 (0000ms, 0687ms total)
T3340 000:861 JLINK_SetBPEx(Addr = 0x20000000, Type = 0xFFFFFFF2)  returns 0x00000005 (0000ms, 0687ms total)
T3340 000:861 JLINK_Go() -- CPU_ReadMem(4 bytes @ 0xE0001000) (0004ms, 0691ms total)
T3340 000:865 JLINK_IsHalted()  returns FALSE (0000ms, 0691ms total)
T3340 000:883 JLINK_IsHalted()  returns FALSE (0001ms, 0692ms total)
T3340 000:886 JLINK_IsHalted()  returns FALSE (0001ms, 0692ms total)
T3340 000:893 JLINK_IsHalted()  returns FALSE (0001ms, 0692ms total)
T3340 000:896 JLINK_IsHalted() -- CPU_ReadMem(2 bytes @ 0x20000000)  returns TRUE (0004ms, 0695ms total)
T3340 000:900 JLINK_ReadReg(R15 (PC))  returns 0x20000000 (0000ms, 0691ms total)
T3340 000:900 JLINK_ClrBPEx(BPHandle = 0x00000005)  returns 0x00 (0000ms, 0691ms total)
T3340 000:900 JLINK_ReadReg(R0)  returns 0x00000000 (0000ms, 0691ms total)
T3340 000:901 JLINK_WriteMem(0x20000164, 0x0400 Bytes, ...) - Data: 1C A0 00 27 C4 F8 18 A0 2A 2D 09 D0 28 46 03 F0 ... -- CPU_WriteMem(1024 bytes @ 0x20000164)  returns 0x400 (0013ms, 0704ms total)
T3340 000:914 JLINK_WriteReg(R0, 0x08000400)  returns 0x00 (0000ms, 0704ms total)
T3340 000:914 JLINK_WriteReg(R1, 0x00000400)  returns 0x00 (0000ms, 0704ms total)
T3340 000:914 JLINK_WriteReg(R2, 0x20000164)  returns 0x00 (0000ms, 0704ms total)
T3340 000:914 JLINK_WriteReg(R3, 0x00000000)  returns 0x00 (0000ms, 0704ms total)
T3340 000:914 JLINK_WriteReg(R4, 0x00000000)  returns 0x00 (0000ms, 0704ms total)
T3340 000:914 JLINK_WriteReg(R5, 0x00000000)  returns 0x00 (0000ms, 0704ms total)
T3340 000:914 JLINK_WriteReg(R6, 0x00000000)  returns 0x00 (0000ms, 0704ms total)
T3340 000:914 JLINK_WriteReg(R7, 0x00000000)  returns 0x00 (0000ms, 0704ms total)
T3340 000:914 JLINK_WriteReg(R8, 0x00000000)  returns 0x00 (0000ms, 0704ms total)
T3340 000:914 JLINK_WriteReg(R9, 0x20000160)  returns 0x00 (0000ms, 0704ms total)
T3340 000:914 JLINK_WriteReg(R10, 0x00000000)  returns 0x00 (0000ms, 0704ms total)
T3340 000:914 JLINK_WriteReg(R11, 0x00000000)  returns 0x00 (0000ms, 0704ms total)
T3340 000:914 JLINK_WriteReg(R12, 0x00000000)  returns 0x00 (0000ms, 0704ms total)
T3340 000:914 JLINK_WriteReg(R13 (SP), 0x20001000)  returns 0x00 (0000ms, 0704ms total)
T3340 000:914 JLINK_WriteReg(R14, 0x20000001)  returns 0x00 (0000ms, 0704ms total)
T3340 000:914 JLINK_WriteReg(R15 (PC), 0x200000F4)  returns 0x00 (0000ms, 0704ms total)
T3340 000:914 JLINK_WriteReg(XPSR, 0x01000000)  returns 0x00 (0000ms, 0704ms total)
T3340 000:914 JLINK_WriteReg(MSP, 0x20001000)  returns 0x00 (0000ms, 0704ms total)
T3340 000:914 JLINK_WriteReg(PSP, 0x20001000)  returns 0x00 (0000ms, 0704ms total)
T3340 000:914 JLINK_WriteReg(CFBP, 0x00000000)  returns 0x00 (0000ms, 0704ms total)
T3340 000:914 JLINK_SetBPEx(Addr = 0x20000000, Type = 0xFFFFFFF2)  returns 0x00000006 (0000ms, 0704ms total)
T3340 000:914 JLINK_Go() -- CPU_ReadMem(4 bytes @ 0xE0001000) (0003ms, 0707ms total)
T3340 000:917 JLINK_IsHalted()  returns FALSE (0001ms, 0708ms total)
T3340 000:922 JLINK_IsHalted()  returns FALSE (0000ms, 0707ms total)
T3340 000:924 JLINK_IsHalted()  returns FALSE (0000ms, 0707ms total)
T3340 000:926 JLINK_IsHalted()  returns FALSE (0000ms, 0707ms total)
T3340 000:928 JLINK_IsHalted()  returns FALSE (0001ms, 0708ms total)
T3340 000:931 JLINK_IsHalted()  returns FALSE (0001ms, 0708ms total)
T3340 000:937 JLINK_IsHalted()  returns FALSE (0000ms, 0707ms total)
T3340 000:939 JLINK_IsHalted()  returns FALSE (0000ms, 0707ms total)
T3340 000:941 JLINK_IsHalted()  returns FALSE (0000ms, 0707ms total)
T3340 000:943 JLINK_IsHalted()  returns FALSE (0000ms, 0707ms total)
T3340 000:945 JLINK_IsHalted()  returns FALSE (0000ms, 0707ms total)
T3340 000:947 JLINK_IsHalted()  returns FALSE (0000ms, 0707ms total)
T3340 000:952 JLINK_IsHalted() -- CPU_ReadMem(2 bytes @ 0x20000000)  returns TRUE (0004ms, 0711ms total)
T3340 000:956 JLINK_ReadReg(R15 (PC))  returns 0x20000000 (0000ms, 0707ms total)
T3340 000:956 JLINK_ClrBPEx(BPHandle = 0x00000006)  returns 0x00 (0000ms, 0707ms total)
T3340 000:956 JLINK_ReadReg(R0)  returns 0x00000000 (0000ms, 0707ms total)
T3340 000:956 JLINK_WriteMem(0x20000164, 0x0400 Bytes, ...) - Data: 21 46 40 46 BD E8 F0 41 FF F7 E1 BE 00 00 00 00 ... -- CPU_WriteMem(1024 bytes @ 0x20000164)  returns 0x400 (0013ms, 0720ms total)
T3340 000:969 JLINK_WriteReg(R0, 0x08000800)  returns 0x00 (0000ms, 0720ms total)
T3340 000:969 JLINK_WriteReg(R1, 0x00000400)  returns 0x00 (0000ms, 0720ms total)
T3340 000:969 JLINK_WriteReg(R2, 0x20000164)  returns 0x00 (0000ms, 0720ms total)
T3340 000:969 JLINK_WriteReg(R3, 0x00000000)  returns 0x00 (0000ms, 0720ms total)
T3340 000:969 JLINK_WriteReg(R4, 0x00000000)  returns 0x00 (0000ms, 0720ms total)
T3340 000:969 JLINK_WriteReg(R5, 0x00000000)  returns 0x00 (0000ms, 0720ms total)
T3340 000:969 JLINK_WriteReg(R6, 0x00000000)  returns 0x00 (0000ms, 0720ms total)
T3340 000:969 JLINK_WriteReg(R7, 0x00000000)  returns 0x00 (0000ms, 0720ms total)
T3340 000:969 JLINK_WriteReg(R8, 0x00000000)  returns 0x00 (0000ms, 0720ms total)
T3340 000:969 JLINK_WriteReg(R9, 0x20000160)  returns 0x00 (0000ms, 0720ms total)
T3340 000:969 JLINK_WriteReg(R10, 0x00000000)  returns 0x00 (0000ms, 0720ms total)
T3340 000:969 JLINK_WriteReg(R11, 0x00000000)  returns 0x00 (0000ms, 0720ms total)
T3340 000:969 JLINK_WriteReg(R12, 0x00000000)  returns 0x00 (0000ms, 0720ms total)
T3340 000:969 JLINK_WriteReg(R13 (SP), 0x20001000)  returns 0x00 (0000ms, 0720ms total)
T3340 000:969 JLINK_WriteReg(R14, 0x20000001)  returns 0x00 (0000ms, 0720ms total)
T3340 000:969 JLINK_WriteReg(R15 (PC), 0x200000F4)  returns 0x00 (0000ms, 0720ms total)
T3340 000:969 JLINK_WriteReg(XPSR, 0x01000000)  returns 0x00 (0000ms, 0720ms total)
T3340 000:969 JLINK_WriteReg(MSP, 0x20001000)  returns 0x00 (0000ms, 0720ms total)
T3340 000:969 JLINK_WriteReg(PSP, 0x20001000)  returns 0x00 (0000ms, 0720ms total)
T3340 000:969 JLINK_WriteReg(CFBP, 0x00000000)  returns 0x00 (0000ms, 0720ms total)
T3340 000:969 JLINK_SetBPEx(Addr = 0x20000000, Type = 0xFFFFFFF2)  returns 0x00000007 (0000ms, 0720ms total)
T3340 000:969 JLINK_Go() -- CPU_ReadMem(4 bytes @ 0xE0001000) (0003ms, 0723ms total)
T3340 000:972 JLINK_IsHalted()  returns FALSE (0001ms, 0724ms total)
T3340 000:978 JLINK_IsHalted()  returns FALSE (0000ms, 0723ms total)
T3340 000:986 JLINK_IsHalted()  returns FALSE (0001ms, 0724ms total)
T3340 000:989 JLINK_IsHalted()  returns FALSE (0001ms, 0724ms total)
T3340 000:992 JLINK_IsHalted()  returns FALSE (0000ms, 0723ms total)
T3340 000:994 JLINK_IsHalted()  returns FALSE (0000ms, 0723ms total)
T3340 000:996 JLINK_IsHalted()  returns FALSE (0000ms, 0723ms total)
T3340 001:001 JLINK_IsHalted()  returns FALSE (0001ms, 0724ms total)
T3340 001:004 JLINK_IsHalted() -- CPU_ReadMem(2 bytes @ 0x20000000)  returns TRUE (0004ms, 0727ms total)
T3340 001:008 JLINK_ReadReg(R15 (PC))  returns 0x20000000 (0000ms, 0723ms total)
T3340 001:008 JLINK_ClrBPEx(BPHandle = 0x00000007)  returns 0x00 (0000ms, 0723ms total)
T3340 001:008 JLINK_ReadReg(R0)  returns 0x00000000 (0000ms, 0723ms total)
T3340 001:009 JLINK_WriteMem(0x20000164, 0x0400 Bytes, ...) - Data: 0C A8 FF F7 D3 FE DD E9 0D B0 0C 99 5D 46 00 26 ... -- CPU_WriteMem(1024 bytes @ 0x20000164)  returns 0x400 (0013ms, 0736ms total)
T3340 001:022 JLINK_WriteReg(R0, 0x08000C00)  returns 0x00 (0000ms, 0736ms total)
T3340 001:022 JLINK_WriteReg(R1, 0x00000400)  returns 0x00 (0000ms, 0736ms total)
T3340 001:022 JLINK_WriteReg(R2, 0x20000164)  returns 0x00 (0000ms, 0736ms total)
T3340 001:022 JLINK_WriteReg(R3, 0x00000000)  returns 0x00 (0000ms, 0736ms total)
T3340 001:022 JLINK_WriteReg(R4, 0x00000000)  returns 0x00 (0000ms, 0736ms total)
T3340 001:022 JLINK_WriteReg(R5, 0x00000000)  returns 0x00 (0000ms, 0736ms total)
T3340 001:022 JLINK_WriteReg(R6, 0x00000000)  returns 0x00 (0000ms, 0736ms total)
T3340 001:022 JLINK_WriteReg(R7, 0x00000000)  returns 0x00 (0000ms, 0736ms total)
T3340 001:022 JLINK_WriteReg(R8, 0x00000000)  returns 0x00 (0000ms, 0736ms total)
T3340 001:022 JLINK_WriteReg(R9, 0x20000160)  returns 0x00 (0000ms, 0736ms total)
T3340 001:022 JLINK_WriteReg(R10, 0x00000000)  returns 0x00 (0000ms, 0736ms total)
T3340 001:022 JLINK_WriteReg(R11, 0x00000000)  returns 0x00 (0000ms, 0736ms total)
T3340 001:022 JLINK_WriteReg(R12, 0x00000000)  returns 0x00 (0000ms, 0736ms total)
T3340 001:022 JLINK_WriteReg(R13 (SP), 0x20001000)  returns 0x00 (0000ms, 0736ms total)
T3340 001:022 JLINK_WriteReg(R14, 0x20000001)  returns 0x00 (0000ms, 0736ms total)
T3340 001:022 JLINK_WriteReg(R15 (PC), 0x200000F4)  returns 0x00 (0000ms, 0736ms total)
T3340 001:022 JLINK_WriteReg(XPSR, 0x01000000)  returns 0x00 (0000ms, 0736ms total)
T3340 001:022 JLINK_WriteReg(MSP, 0x20001000)  returns 0x00 (0000ms, 0736ms total)
T3340 001:022 JLINK_WriteReg(PSP, 0x20001000)  returns 0x00 (0000ms, 0736ms total)
T3340 001:022 JLINK_WriteReg(CFBP, 0x00000000)  returns 0x00 (0000ms, 0736ms total)
T3340 001:022 JLINK_SetBPEx(Addr = 0x20000000, Type = 0xFFFFFFF2)  returns 0x00000008 (0000ms, 0736ms total)
T3340 001:022 JLINK_Go() -- CPU_ReadMem(4 bytes @ 0xE0001000) (0003ms, 0739ms total)
T3340 001:025 JLINK_IsHalted()  returns FALSE (0001ms, 0740ms total)
T3340 001:032 JLINK_IsHalted()  returns FALSE (0000ms, 0739ms total)
T3340 001:034 JLINK_IsHalted()  returns FALSE (0000ms, 0739ms total)
T3340 001:036 JLINK_IsHalted()  returns FALSE (0000ms, 0739ms total)
T3340 001:038 JLINK_IsHalted()  returns FALSE (0000ms, 0739ms total)
T3340 001:040 JLINK_IsHalted()  returns FALSE (0000ms, 0739ms total)
T3340 001:045 JLINK_IsHalted()  returns FALSE (0000ms, 0739ms total)
T3340 001:047 JLINK_IsHalted()  returns FALSE (0000ms, 0739ms total)
T3340 001:049 JLINK_IsHalted()  returns FALSE (0000ms, 0739ms total)
T3340 001:051 JLINK_IsHalted()  returns FALSE (0000ms, 0739ms total)
T3340 001:053 JLINK_IsHalted()  returns FALSE (0000ms, 0739ms total)
T3340 001:055 JLINK_IsHalted()  returns FALSE (0000ms, 0739ms total)
T3340 001:057 JLINK_IsHalted() -- CPU_ReadMem(2 bytes @ 0x20000000)  returns TRUE (0004ms, 0743ms total)
T3340 001:061 JLINK_ReadReg(R15 (PC))  returns 0x20000000 (0000ms, 0739ms total)
T3340 001:061 JLINK_ClrBPEx(BPHandle = 0x00000008)  returns 0x00 (0000ms, 0739ms total)
T3340 001:061 JLINK_ReadReg(R0)  returns 0x00000000 (0000ms, 0739ms total)
T3340 001:061 JLINK_WriteMem(0x20000164, 0x0400 Bytes, ...) - Data: 00 F0 CF FA 01 E0 00 F0 E0 FA C9 E9 00 01 C9 F8 ... -- CPU_WriteMem(1024 bytes @ 0x20000164)  returns 0x400 (0013ms, 0752ms total)
T3340 001:074 JLINK_WriteReg(R0, 0x08001000)  returns 0x00 (0000ms, 0752ms total)
T3340 001:074 JLINK_WriteReg(R1, 0x00000400)  returns 0x00 (0000ms, 0752ms total)
T3340 001:074 JLINK_WriteReg(R2, 0x20000164)  returns 0x00 (0000ms, 0752ms total)
T3340 001:074 JLINK_WriteReg(R3, 0x00000000)  returns 0x00 (0000ms, 0752ms total)
T3340 001:074 JLINK_WriteReg(R4, 0x00000000)  returns 0x00 (0000ms, 0752ms total)
T3340 001:074 JLINK_WriteReg(R5, 0x00000000)  returns 0x00 (0000ms, 0752ms total)
T3340 001:074 JLINK_WriteReg(R6, 0x00000000)  returns 0x00 (0000ms, 0752ms total)
T3340 001:074 JLINK_WriteReg(R7, 0x00000000)  returns 0x00 (0000ms, 0752ms total)
T3340 001:074 JLINK_WriteReg(R8, 0x00000000)  returns 0x00 (0000ms, 0752ms total)
T3340 001:074 JLINK_WriteReg(R9, 0x20000160)  returns 0x00 (0000ms, 0752ms total)
T3340 001:074 JLINK_WriteReg(R10, 0x00000000)  returns 0x00 (0000ms, 0752ms total)
T3340 001:074 JLINK_WriteReg(R11, 0x00000000)  returns 0x00 (0000ms, 0752ms total)
T3340 001:074 JLINK_WriteReg(R12, 0x00000000)  returns 0x00 (0000ms, 0752ms total)
T3340 001:074 JLINK_WriteReg(R13 (SP), 0x20001000)  returns 0x00 (0000ms, 0752ms total)
T3340 001:074 JLINK_WriteReg(R14, 0x20000001)  returns 0x00 (0000ms, 0752ms total)
T3340 001:074 JLINK_WriteReg(R15 (PC), 0x200000F4)  returns 0x00 (0000ms, 0752ms total)
T3340 001:074 JLINK_WriteReg(XPSR, 0x01000000)  returns 0x00 (0000ms, 0752ms total)
T3340 001:074 JLINK_WriteReg(MSP, 0x20001000)  returns 0x00 (0000ms, 0752ms total)
T3340 001:074 JLINK_WriteReg(PSP, 0x20001000)  returns 0x00 (0000ms, 0752ms total)
T3340 001:074 JLINK_WriteReg(CFBP, 0x00000000)  returns 0x00 (0000ms, 0752ms total)
T3340 001:074 JLINK_SetBPEx(Addr = 0x20000000, Type = 0xFFFFFFF2)  returns 0x00000009 (0000ms, 0752ms total)
T3340 001:074 JLINK_Go() -- CPU_ReadMem(4 bytes @ 0xE0001000) (0003ms, 0755ms total)
T3340 001:077 JLINK_IsHalted()  returns FALSE (0001ms, 0756ms total)
T3340 001:087 JLINK_IsHalted()  returns FALSE (0001ms, 0756ms total)
T3340 001:090 JLINK_IsHalted()  returns FALSE (0000ms, 0755ms total)
T3340 001:099 JLINK_IsHalted()  returns FALSE (0000ms, 0755ms total)
T3340 001:101 JLINK_IsHalted()  returns FALSE (0000ms, 0755ms total)
T3340 001:103 JLINK_IsHalted()  returns FALSE (0000ms, 0755ms total)
T3340 001:110 JLINK_IsHalted() -- CPU_ReadMem(2 bytes @ 0x20000000)  returns TRUE (0004ms, 0759ms total)
T3340 001:114 JLINK_ReadReg(R15 (PC))  returns 0x20000000 (0000ms, 0755ms total)
T3340 001:114 JLINK_ClrBPEx(BPHandle = 0x00000009)  returns 0x00 (0000ms, 0755ms total)
T3340 001:114 JLINK_ReadReg(R0)  returns 0x00000000 (0000ms, 0755ms total)
T3340 001:114 JLINK_WriteMem(0x20000164, 0x0400 Bytes, ...) - Data: 0E 0E 4F F0 00 0B 00 18 52 41 49 41 4B EB 0B 0B ... -- CPU_WriteMem(1024 bytes @ 0x20000164)  returns 0x400 (0013ms, 0768ms total)
T3340 001:127 JLINK_WriteReg(R0, 0x08001400)  returns 0x00 (0000ms, 0768ms total)
T3340 001:127 JLINK_WriteReg(R1, 0x00000400)  returns 0x00 (0000ms, 0768ms total)
T3340 001:127 JLINK_WriteReg(R2, 0x20000164)  returns 0x00 (0000ms, 0768ms total)
T3340 001:127 JLINK_WriteReg(R3, 0x00000000)  returns 0x00 (0000ms, 0768ms total)
T3340 001:127 JLINK_WriteReg(R4, 0x00000000)  returns 0x00 (0000ms, 0768ms total)
T3340 001:127 JLINK_WriteReg(R5, 0x00000000)  returns 0x00 (0000ms, 0768ms total)
T3340 001:127 JLINK_WriteReg(R6, 0x00000000)  returns 0x00 (0000ms, 0768ms total)
T3340 001:127 JLINK_WriteReg(R7, 0x00000000)  returns 0x00 (0000ms, 0768ms total)
T3340 001:127 JLINK_WriteReg(R8, 0x00000000)  returns 0x00 (0000ms, 0768ms total)
T3340 001:127 JLINK_WriteReg(R9, 0x20000160)  returns 0x00 (0000ms, 0768ms total)
T3340 001:127 JLINK_WriteReg(R10, 0x00000000)  returns 0x00 (0000ms, 0768ms total)
T3340 001:127 JLINK_WriteReg(R11, 0x00000000)  returns 0x00 (0000ms, 0768ms total)
T3340 001:127 JLINK_WriteReg(R12, 0x00000000)  returns 0x00 (0000ms, 0768ms total)
T3340 001:127 JLINK_WriteReg(R13 (SP), 0x20001000)  returns 0x00 (0000ms, 0768ms total)
T3340 001:127 JLINK_WriteReg(R14, 0x20000001)  returns 0x00 (0000ms, 0768ms total)
T3340 001:127 JLINK_WriteReg(R15 (PC), 0x200000F4)  returns 0x00 (0000ms, 0768ms total)
T3340 001:127 JLINK_WriteReg(XPSR, 0x01000000)  returns 0x00 (0000ms, 0768ms total)
T3340 001:127 JLINK_WriteReg(MSP, 0x20001000)  returns 0x00 (0000ms, 0768ms total)
T3340 001:127 JLINK_WriteReg(PSP, 0x20001000)  returns 0x00 (0000ms, 0768ms total)
T3340 001:127 JLINK_WriteReg(CFBP, 0x00000000)  returns 0x00 (0000ms, 0768ms total)
T3340 001:127 JLINK_SetBPEx(Addr = 0x20000000, Type = 0xFFFFFFF2)  returns 0x0000000A (0000ms, 0768ms total)
T3340 001:127 JLINK_Go() -- CPU_ReadMem(4 bytes @ 0xE0001000) (0003ms, 0771ms total)
T3340 001:130 JLINK_IsHalted()  returns FALSE (0001ms, 0772ms total)
T3340 001:141 JLINK_IsHalted()  returns FALSE (0000ms, 0771ms total)
T3340 001:143 JLINK_IsHalted()  returns FALSE (0000ms, 0771ms total)
T3340 001:145 JLINK_IsHalted()  returns FALSE (0000ms, 0771ms total)
T3340 001:148 JLINK_IsHalted()  returns FALSE (0000ms, 0771ms total)
T3340 001:150 JLINK_IsHalted()  returns FALSE (0000ms, 0771ms total)
T3340 001:156 JLINK_IsHalted()  returns FALSE (0000ms, 0771ms total)
T3340 001:158 JLINK_IsHalted()  returns FALSE (0000ms, 0771ms total)
T3340 001:160 JLINK_IsHalted()  returns FALSE (0000ms, 0771ms total)
T3340 001:163 JLINK_IsHalted() -- CPU_ReadMem(2 bytes @ 0x20000000)  returns TRUE (0004ms, 0775ms total)
T3340 001:167 JLINK_ReadReg(R15 (PC))  returns 0x20000000 (0000ms, 0771ms total)
T3340 001:167 JLINK_ClrBPEx(BPHandle = 0x0000000A)  returns 0x00 (0000ms, 0771ms total)
T3340 001:167 JLINK_ReadReg(R0)  returns 0x00000000 (0000ms, 0771ms total)
T3340 001:168 JLINK_WriteMem(0x20000164, 0x0400 Bytes, ...) - Data: 07 4C 05 FB 07 F1 06 FB 07 F7 0C FB 06 F2 4F F0 ... -- CPU_WriteMem(1024 bytes @ 0x20000164)  returns 0x400 (0012ms, 0783ms total)
T3340 001:180 JLINK_WriteReg(R0, 0x08001800)  returns 0x00 (0000ms, 0783ms total)
T3340 001:180 JLINK_WriteReg(R1, 0x00000400)  returns 0x00 (0000ms, 0783ms total)
T3340 001:180 JLINK_WriteReg(R2, 0x20000164)  returns 0x00 (0000ms, 0783ms total)
T3340 001:180 JLINK_WriteReg(R3, 0x00000000)  returns 0x00 (0000ms, 0783ms total)
T3340 001:180 JLINK_WriteReg(R4, 0x00000000)  returns 0x00 (0000ms, 0783ms total)
T3340 001:180 JLINK_WriteReg(R5, 0x00000000)  returns 0x00 (0000ms, 0783ms total)
T3340 001:180 JLINK_WriteReg(R6, 0x00000000)  returns 0x00 (0000ms, 0783ms total)
T3340 001:180 JLINK_WriteReg(R7, 0x00000000)  returns 0x00 (0000ms, 0783ms total)
T3340 001:180 JLINK_WriteReg(R8, 0x00000000)  returns 0x00 (0000ms, 0783ms total)
T3340 001:180 JLINK_WriteReg(R9, 0x20000160)  returns 0x00 (0000ms, 0783ms total)
T3340 001:180 JLINK_WriteReg(R10, 0x00000000)  returns 0x00 (0000ms, 0783ms total)
T3340 001:180 JLINK_WriteReg(R11, 0x00000000)  returns 0x00 (0000ms, 0783ms total)
T3340 001:180 JLINK_WriteReg(R12, 0x00000000)  returns 0x00 (0000ms, 0783ms total)
T3340 001:180 JLINK_WriteReg(R13 (SP), 0x20001000)  returns 0x00 (0000ms, 0783ms total)
T3340 001:180 JLINK_WriteReg(R14, 0x20000001)  returns 0x00 (0000ms, 0783ms total)
T3340 001:180 JLINK_WriteReg(R15 (PC), 0x200000F4)  returns 0x00 (0000ms, 0783ms total)
T3340 001:180 JLINK_WriteReg(XPSR, 0x01000000)  returns 0x00 (0000ms, 0783ms total)
T3340 001:180 JLINK_WriteReg(MSP, 0x20001000)  returns 0x00 (0000ms, 0783ms total)
T3340 001:180 JLINK_WriteReg(PSP, 0x20001000)  returns 0x00 (0000ms, 0783ms total)
T3340 001:180 JLINK_WriteReg(CFBP, 0x00000000)  returns 0x00 (0000ms, 0783ms total)
T3340 001:180 JLINK_SetBPEx(Addr = 0x20000000, Type = 0xFFFFFFF2)  returns 0x0000000B (0000ms, 0783ms total)
T3340 001:180 JLINK_Go() -- CPU_ReadMem(4 bytes @ 0xE0001000) (0004ms, 0787ms total)
T3340 001:184 JLINK_IsHalted()  returns FALSE (0000ms, 0787ms total)
T3340 001:255 JLINK_IsHalted() -- CPU_ReadMem(2 bytes @ 0x20000000)  returns TRUE (0004ms, 0791ms total)
T3340 001:259 JLINK_ReadReg(R15 (PC))  returns 0x20000000 (0000ms, 0787ms total)
T3340 001:259 JLINK_ClrBPEx(BPHandle = 0x0000000B)  returns 0x00 (0000ms, 0787ms total)
T3340 001:259 JLINK_ReadReg(R0)  returns 0x00000000 (0000ms, 0787ms total)
T3340 001:260 JLINK_WriteMem(0x20000164, 0x0400 Bytes, ...) - Data: B3 F8 30 B1 1B 49 C8 6A 80 47 4F F4 00 60 00 F0 ... -- CPU_WriteMem(1024 bytes @ 0x20000164)  returns 0x400 (0013ms, 0800ms total)
T3340 001:273 JLINK_WriteReg(R0, 0x08001C00)  returns 0x00 (0000ms, 0800ms total)
T3340 001:273 JLINK_WriteReg(R1, 0x00000400)  returns 0x00 (0000ms, 0800ms total)
T3340 001:273 JLINK_WriteReg(R2, 0x20000164)  returns 0x00 (0000ms, 0800ms total)
T3340 001:273 JLINK_WriteReg(R3, 0x00000000)  returns 0x00 (0000ms, 0800ms total)
T3340 001:273 JLINK_WriteReg(R4, 0x00000000)  returns 0x00 (0000ms, 0800ms total)
T3340 001:273 JLINK_WriteReg(R5, 0x00000000)  returns 0x00 (0000ms, 0800ms total)
T3340 001:273 JLINK_WriteReg(R6, 0x00000000)  returns 0x00 (0000ms, 0800ms total)
T3340 001:273 JLINK_WriteReg(R7, 0x00000000)  returns 0x00 (0000ms, 0800ms total)
T3340 001:273 JLINK_WriteReg(R8, 0x00000000)  returns 0x00 (0000ms, 0800ms total)
T3340 001:273 JLINK_WriteReg(R9, 0x20000160)  returns 0x00 (0000ms, 0800ms total)
T3340 001:273 JLINK_WriteReg(R10, 0x00000000)  returns 0x00 (0000ms, 0800ms total)
T3340 001:273 JLINK_WriteReg(R11, 0x00000000)  returns 0x00 (0000ms, 0800ms total)
T3340 001:273 JLINK_WriteReg(R12, 0x00000000)  returns 0x00 (0000ms, 0800ms total)
T3340 001:273 JLINK_WriteReg(R13 (SP), 0x20001000)  returns 0x00 (0000ms, 0800ms total)
T3340 001:273 JLINK_WriteReg(R14, 0x20000001)  returns 0x00 (0000ms, 0800ms total)
T3340 001:273 JLINK_WriteReg(R15 (PC), 0x200000F4)  returns 0x00 (0000ms, 0800ms total)
T3340 001:273 JLINK_WriteReg(XPSR, 0x01000000)  returns 0x00 (0000ms, 0800ms total)
T3340 001:273 JLINK_WriteReg(MSP, 0x20001000)  returns 0x00 (0000ms, 0800ms total)
T3340 001:273 JLINK_WriteReg(PSP, 0x20001000)  returns 0x00 (0000ms, 0800ms total)
T3340 001:273 JLINK_WriteReg(CFBP, 0x00000000)  returns 0x00 (0000ms, 0800ms total)
T3340 001:273 JLINK_SetBPEx(Addr = 0x20000000, Type = 0xFFFFFFF2)  returns 0x0000000C (0000ms, 0800ms total)
T3340 001:273 JLINK_Go() -- CPU_ReadMem(4 bytes @ 0xE0001000) (0003ms, 0803ms total)
T3340 001:276 JLINK_IsHalted()  returns FALSE (0001ms, 0804ms total)
T3340 001:283 JLINK_IsHalted()  returns FALSE (0000ms, 0803ms total)
T3340 001:285 JLINK_IsHalted()  returns FALSE (0001ms, 0804ms total)
T3340 001:288 JLINK_IsHalted()  returns FALSE (0000ms, 0803ms total)
T3340 001:290 JLINK_IsHalted()  returns FALSE (0000ms, 0803ms total)
T3340 001:295 JLINK_IsHalted()  returns FALSE (0000ms, 0803ms total)
T3340 001:297 JLINK_IsHalted()  returns FALSE (0000ms, 0803ms total)
T3340 001:299 JLINK_IsHalted()  returns FALSE (0000ms, 0803ms total)
T3340 001:301 JLINK_IsHalted()  returns FALSE (0000ms, 0803ms total)
T3340 001:303 JLINK_IsHalted()  returns FALSE (0000ms, 0803ms total)
T3340 001:305 JLINK_IsHalted()  returns FALSE (0000ms, 0803ms total)
T3340 001:307 JLINK_IsHalted() -- CPU_ReadMem(2 bytes @ 0x20000000)  returns TRUE (0004ms, 0807ms total)
T3340 001:311 JLINK_ReadReg(R15 (PC))  returns 0x20000000 (0000ms, 0803ms total)
T3340 001:311 JLINK_ClrBPEx(BPHandle = 0x0000000C)  returns 0x00 (0000ms, 0803ms total)
T3340 001:311 JLINK_ReadReg(R0)  returns 0x00000000 (0000ms, 0803ms total)
T3340 001:311 JLINK_WriteMem(0x20000164, 0x0400 Bytes, ...) - Data: 02 49 01 43 02 4A 11 60 70 47 00 00 00 00 FA 05 ... -- CPU_WriteMem(1024 bytes @ 0x20000164)  returns 0x400 (0013ms, 0816ms total)
T3340 001:324 JLINK_WriteReg(R0, 0x08002000)  returns 0x00 (0000ms, 0816ms total)
T3340 001:324 JLINK_WriteReg(R1, 0x00000400)  returns 0x00 (0000ms, 0816ms total)
T3340 001:324 JLINK_WriteReg(R2, 0x20000164)  returns 0x00 (0000ms, 0816ms total)
T3340 001:324 JLINK_WriteReg(R3, 0x00000000)  returns 0x00 (0000ms, 0816ms total)
T3340 001:324 JLINK_WriteReg(R4, 0x00000000)  returns 0x00 (0000ms, 0816ms total)
T3340 001:324 JLINK_WriteReg(R5, 0x00000000)  returns 0x00 (0000ms, 0816ms total)
T3340 001:324 JLINK_WriteReg(R6, 0x00000000)  returns 0x00 (0000ms, 0816ms total)
T3340 001:324 JLINK_WriteReg(R7, 0x00000000)  returns 0x00 (0000ms, 0816ms total)
T3340 001:324 JLINK_WriteReg(R8, 0x00000000)  returns 0x00 (0000ms, 0816ms total)
T3340 001:324 JLINK_WriteReg(R9, 0x20000160)  returns 0x00 (0000ms, 0816ms total)
T3340 001:324 JLINK_WriteReg(R10, 0x00000000)  returns 0x00 (0000ms, 0816ms total)
T3340 001:324 JLINK_WriteReg(R11, 0x00000000)  returns 0x00 (0000ms, 0816ms total)
T3340 001:324 JLINK_WriteReg(R12, 0x00000000)  returns 0x00 (0000ms, 0816ms total)
T3340 001:324 JLINK_WriteReg(R13 (SP), 0x20001000)  returns 0x00 (0000ms, 0816ms total)
T3340 001:324 JLINK_WriteReg(R14, 0x20000001)  returns 0x00 (0000ms, 0816ms total)
T3340 001:324 JLINK_WriteReg(R15 (PC), 0x200000F4)  returns 0x00 (0000ms, 0816ms total)
T3340 001:324 JLINK_WriteReg(XPSR, 0x01000000)  returns 0x00 (0000ms, 0816ms total)
T3340 001:324 JLINK_WriteReg(MSP, 0x20001000)  returns 0x00 (0000ms, 0816ms total)
T3340 001:324 JLINK_WriteReg(PSP, 0x20001000)  returns 0x00 (0000ms, 0816ms total)
T3340 001:324 JLINK_WriteReg(CFBP, 0x00000000)  returns 0x00 (0000ms, 0816ms total)
T3340 001:324 JLINK_SetBPEx(Addr = 0x20000000, Type = 0xFFFFFFF2)  returns 0x0000000D (0000ms, 0816ms total)
T3340 001:324 JLINK_Go() -- CPU_ReadMem(4 bytes @ 0xE0001000) (0003ms, 0819ms total)
T3340 001:327 JLINK_IsHalted()  returns FALSE (0001ms, 0820ms total)
T3340 001:337 JLINK_IsHalted()  returns FALSE (0000ms, 0819ms total)
T3340 001:339 JLINK_IsHalted()  returns FALSE (0000ms, 0819ms total)
T3340 001:344 JLINK_IsHalted()  returns FALSE (0000ms, 0819ms total)
T3340 001:346 JLINK_IsHalted()  returns FALSE (0000ms, 0819ms total)
T3340 001:348 JLINK_IsHalted()  returns FALSE (0000ms, 0819ms total)
T3340 001:350 JLINK_IsHalted()  returns FALSE (0000ms, 0819ms total)
T3340 001:352 JLINK_IsHalted()  returns FALSE (0000ms, 0819ms total)
T3340 001:354 JLINK_IsHalted()  returns FALSE (0000ms, 0819ms total)
T3340 001:359 JLINK_IsHalted() -- CPU_ReadMem(2 bytes @ 0x20000000)  returns TRUE (0004ms, 0823ms total)
T3340 001:363 JLINK_ReadReg(R15 (PC))  returns 0x20000000 (0000ms, 0819ms total)
T3340 001:363 JLINK_ClrBPEx(BPHandle = 0x0000000D)  returns 0x00 (0000ms, 0819ms total)
T3340 001:363 JLINK_ReadReg(R0)  returns 0x00000000 (0000ms, 0819ms total)
T3340 001:363 JLINK_WriteMem(0x20000164, 0x0400 Bytes, ...) - Data: 40 F0 02 00 48 60 00 BF 03 48 40 68 00 F0 0C 00 ... -- CPU_WriteMem(1024 bytes @ 0x20000164)  returns 0x400 (0013ms, 0832ms total)
T3340 001:376 JLINK_WriteReg(R0, 0x08002400)  returns 0x00 (0000ms, 0832ms total)
T3340 001:376 JLINK_WriteReg(R1, 0x00000400)  returns 0x00 (0000ms, 0832ms total)
T3340 001:376 JLINK_WriteReg(R2, 0x20000164)  returns 0x00 (0000ms, 0832ms total)
T3340 001:376 JLINK_WriteReg(R3, 0x00000000)  returns 0x00 (0000ms, 0832ms total)
T3340 001:376 JLINK_WriteReg(R4, 0x00000000)  returns 0x00 (0000ms, 0832ms total)
T3340 001:376 JLINK_WriteReg(R5, 0x00000000)  returns 0x00 (0000ms, 0832ms total)
T3340 001:376 JLINK_WriteReg(R6, 0x00000000)  returns 0x00 (0000ms, 0832ms total)
T3340 001:376 JLINK_WriteReg(R7, 0x00000000)  returns 0x00 (0000ms, 0832ms total)
T3340 001:376 JLINK_WriteReg(R8, 0x00000000)  returns 0x00 (0000ms, 0832ms total)
T3340 001:376 JLINK_WriteReg(R9, 0x20000160)  returns 0x00 (0000ms, 0832ms total)
T3340 001:376 JLINK_WriteReg(R10, 0x00000000)  returns 0x00 (0000ms, 0832ms total)
T3340 001:376 JLINK_WriteReg(R11, 0x00000000)  returns 0x00 (0000ms, 0832ms total)
T3340 001:376 JLINK_WriteReg(R12, 0x00000000)  returns 0x00 (0000ms, 0832ms total)
T3340 001:376 JLINK_WriteReg(R13 (SP), 0x20001000)  returns 0x00 (0000ms, 0832ms total)
T3340 001:376 JLINK_WriteReg(R14, 0x20000001)  returns 0x00 (0000ms, 0832ms total)
T3340 001:376 JLINK_WriteReg(R15 (PC), 0x200000F4)  returns 0x00 (0000ms, 0832ms total)
T3340 001:376 JLINK_WriteReg(XPSR, 0x01000000)  returns 0x00 (0000ms, 0832ms total)
T3340 001:376 JLINK_WriteReg(MSP, 0x20001000)  returns 0x00 (0000ms, 0832ms total)
T3340 001:376 JLINK_WriteReg(PSP, 0x20001000)  returns 0x00 (0000ms, 0832ms total)
T3340 001:376 JLINK_WriteReg(CFBP, 0x00000000)  returns 0x00 (0000ms, 0832ms total)
T3340 001:376 JLINK_SetBPEx(Addr = 0x20000000, Type = 0xFFFFFFF2)  returns 0x0000000E (0000ms, 0832ms total)
T3340 001:376 JLINK_Go() -- CPU_ReadMem(4 bytes @ 0xE0001000) (0003ms, 0835ms total)
T3340 001:379 JLINK_IsHalted()  returns FALSE (0001ms, 0836ms total)
T3340 001:384 JLINK_IsHalted()  returns FALSE (0000ms, 0835ms total)
T3340 001:386 JLINK_IsHalted()  returns FALSE (0000ms, 0835ms total)
T3340 001:391 JLINK_IsHalted()  returns FALSE (0000ms, 0835ms total)
T3340 001:393 JLINK_IsHalted()  returns FALSE (0001ms, 0836ms total)
T3340 001:395 JLINK_IsHalted()  returns FALSE (0001ms, 0836ms total)
T3340 001:398 JLINK_IsHalted()  returns FALSE (0000ms, 0835ms total)
T3340 001:400 JLINK_IsHalted()  returns FALSE (0000ms, 0835ms total)
T3340 001:405 JLINK_IsHalted()  returns FALSE (0000ms, 0835ms total)
T3340 001:407 JLINK_IsHalted()  returns FALSE (0000ms, 0835ms total)
T3340 001:409 JLINK_IsHalted()  returns FALSE (0000ms, 0835ms total)
T3340 001:411 JLINK_IsHalted() -- CPU_ReadMem(2 bytes @ 0x20000000)  returns TRUE (0004ms, 0839ms total)
T3340 001:415 JLINK_ReadReg(R15 (PC))  returns 0x20000000 (0000ms, 0835ms total)
T3340 001:415 JLINK_ClrBPEx(BPHandle = 0x0000000E)  returns 0x00 (0000ms, 0835ms total)
T3340 001:415 JLINK_ReadReg(R0)  returns 0x00000000 (0000ms, 0835ms total)
T3340 001:416 JLINK_WriteMem(0x20000164, 0x0400 Bytes, ...) - Data: 8D F8 04 00 8D F8 05 00 4F F4 60 20 02 90 00 20 ... -- CPU_WriteMem(1024 bytes @ 0x20000164)  returns 0x400 (0012ms, 0847ms total)
T3340 001:428 JLINK_WriteReg(R0, 0x08002800)  returns 0x00 (0000ms, 0847ms total)
T3340 001:428 JLINK_WriteReg(R1, 0x00000400)  returns 0x00 (0000ms, 0847ms total)
T3340 001:428 JLINK_WriteReg(R2, 0x20000164)  returns 0x00 (0000ms, 0847ms total)
T3340 001:428 JLINK_WriteReg(R3, 0x00000000)  returns 0x00 (0000ms, 0847ms total)
T3340 001:428 JLINK_WriteReg(R4, 0x00000000)  returns 0x00 (0000ms, 0847ms total)
T3340 001:428 JLINK_WriteReg(R5, 0x00000000)  returns 0x00 (0000ms, 0847ms total)
T3340 001:428 JLINK_WriteReg(R6, 0x00000000)  returns 0x00 (0000ms, 0847ms total)
T3340 001:428 JLINK_WriteReg(R7, 0x00000000)  returns 0x00 (0000ms, 0847ms total)
T3340 001:428 JLINK_WriteReg(R8, 0x00000000)  returns 0x00 (0000ms, 0847ms total)
T3340 001:428 JLINK_WriteReg(R9, 0x20000160)  returns 0x00 (0000ms, 0847ms total)
T3340 001:428 JLINK_WriteReg(R10, 0x00000000)  returns 0x00 (0000ms, 0847ms total)
T3340 001:428 JLINK_WriteReg(R11, 0x00000000)  returns 0x00 (0000ms, 0847ms total)
T3340 001:428 JLINK_WriteReg(R12, 0x00000000)  returns 0x00 (0000ms, 0847ms total)
T3340 001:428 JLINK_WriteReg(R13 (SP), 0x20001000)  returns 0x00 (0000ms, 0847ms total)
T3340 001:428 JLINK_WriteReg(R14, 0x20000001)  returns 0x00 (0000ms, 0847ms total)
T3340 001:428 JLINK_WriteReg(R15 (PC), 0x200000F4)  returns 0x00 (0000ms, 0847ms total)
T3340 001:428 JLINK_WriteReg(XPSR, 0x01000000)  returns 0x00 (0000ms, 0847ms total)
